ExperimentID,ID,CGn,EGn,CGm,CGSD,EGm,EGSD,Type,d,Vd,SEd,Jdf,g,Vg,SEg
30,5,56,59,9.55,3.97,9.24,3.19,SR,-0.086329993,0.034838699,0.186651277,0.993348115,-0.085755736,0.034376755,0.185409694
30,6,56,59,10.5,4.08,9.29,3.06,ST,-0.336783196,0.035299439,0.187881448,0.993348115,-0.334542953,0.034831385,0.186631682
31,7,41,43,0.54,0.16,0.52,0.18,SR,-0.117276485,0.047727926,0.218467218,0.990825688,-0.116200554,0.046856201,0.216462932
31,8,41,43,0.47,0.16,0.52,0.19,ST,0.284081515,0.048126429,0.219377366,0.990825688,0.281475262,0.047247426,0.21736473
31,9,41,43,0.55,0.18,0.45,0.19,LR,-0.539987646,0.049381693,0.22221992,0.990825688,-0.535033631,0.048479763,0.220181205
31,10,41,43,0.51,0.17,0.44,0.17,LT,-0.411764706,0.048655285,0.22057943,0.990825688,-0.407987048,0.047766623,0.218555766
32,11,25,25,7.08,3.01,8.04,2.26,SR,0.360692037,0.081300987,0.28513328,0.984293194,0.355026717,0.078767087,0.280654747
32,12,25,25,5.12,3.3,6.24,3.99,SR,0.305903047,0.080935767,0.284492121,0.984293194,0.301098288,0.078413249,0.280023658
32,13,25,25,4.76,2.5,5.16,1.91,ST,0.179803885,0.080323294,0.283413645,0.984293194,0.17697974,0.077819866,0.278962122
33,14,22,24,5.09,1.8,5.29,2.63,SR,0.088027897,0.087205439,0.295305671,0.982857143,0.086518847,0.084241166,0.290243288
33,15,22,24,3.36,2.44,4.21,2.04,SR,0.379491789,0.088686582,0.297802925,0.982857143,0.372986216,0.085671962,0.292697732
33,16,22,24,3,2.56,2.92,2,ST,-0.035019196,0.087134542,0.295185606,0.982857143,-0.034418867,0.084172679,0.290125281
34,17,60,52,-66.23,52.81,-91.38,54.15,SR,-0.470661321,0.036886374,0.192058256,0.993166287,-0.467444957,0.036383955,0.190745785
34,18,60,52,8.87,3.06,7.52,3.44,SR,-0.416444932,0.036671661,0.191498462,0.993166287,-0.413599066,0.036172166,0.190189816
34,19,60,52,3.6,2.58,2.54,1.53,SR,-0.491268701,0.036974869,0.192288504,0.993166287,-0.487911511,0.036471244,0.190974459
34,20,60,52,10.47,4.21,10.29,4.03,SR,-0.043609705,0.035905926,0.189488591,0.993166287,-0.043311689,0.035416861,0.18819368
34,21,60,52,6.28,1.9,5.6,1.92,CL,-0.356151697,0.036463704,0.190954717,0.993166287,-0.353717859,0.035967042,0.189649787
35,22,33,33,16,2.54,16.03,2.57,SR,0.011741481,0.060607105,0.246185103,0.988235294,0.011603346,0.059189444,0.243288808
35,23,33,33,13.73,3.64,12.73,3.84,LR,-0.267284153,0.061147279,0.247279758,0.988235294,-0.264139634,0.059716983,0.244370585
36,24,27,25,4.04,1.16,4.48,2.18,SR,0.254848215,0.077661533,0.27867819,0.984924623,0.251006282,0.075337629,0.274477011
36,25,27,25,6.22,1.4,5.92,1.53,CL,-0.204940218,0.077440888,0.278282029,0.984924623,-0.201850667,0.075123587,0.274086823
37,26,27,25,5.19,1.78,4.12,1.56,SR,-0.637662527,0.080946782,0.28451148,0.984924623,-0.628049524,0.078524572,0.280222362
37,27,27,25,6.52,1.72,5.92,2.2,CL,-0.30532995,0.077933445,0.279165622,0.984924623,-0.300726986,0.075601404,0.274957095
38,28,26,25,3.42,1.21,3.8,2.24,SR,0.212274279,0.078903307,0.280897324,0.984615385,0.209008521,0.076494188,0.276575827
38,29,26,25,6.42,1.42,5.56,1.76,CL,-0.538979239,0.081309564,0.28514832,0.984615385,-0.53068725,0.078826976,0.280761422
39,30,26,25,4.58,1.72,4.12,1.94,SR,-0.251220494,0.079080281,0.281212164,0.984615385,-0.247355563,0.076665759,0.276885823
39,31,26,25,6.42,1.42,5.68,1.91,CL,-0.44100777,0.080368282,0.283493002,0.984615385,-0.434223035,0.077914434,0.279131571
40,32,23,24,1.7,1.43,3.46,1.61,SR,1.15435774,0.099320904,0.315152192,0.983240223,1.135010962,0.09601961,0.309870312
40,33,23,24,3.61,1.5,4.79,1.5,SR,0.786666667,0.091728379,0.302866933,0.983240223,0.773482309,0.08867945,0.297790951
40,34,23,24,0.96,0.71,1.83,1.09,ST,0.941600351,0.094576962,0.307533676,0.983240223,0.92581934,0.09143335,0.30237948
41,35,73,62,12.35,7.65,9.72,5.37,SR,-0.392461696,0.03039813,0.174350594,0.994350282,-0.390244398,0.030055618,0.173365563
41,36,73,62,3.89,2.64,2.83,1.95,SR,-0.45128778,0.030581961,0.174876989,0.994350282,-0.448738132,0.030237378,0.173888983
41,37,73,62,8.12,2.72,6.97,2.38,SR,-0.447531574,0.030569457,0.174841233,0.994350282,-0.445003147,0.030225015,0.17385343
41,38,73,62,-15.95,11.8,-20.39,11.22,SR,-0.38482856,0.030376155,0.174287564,0.994350282,-0.382654388,0.030033891,0.173302889
41,39,73,62,3.84,0.98,3.84,0.81,CL,0,0.029827662,0.172706868,0.994350282,0,0.029491579,0.171731123
42,40,45,46,3.84,0.81,3.89,0.63,SR,0.069003676,0.043987515,0.209732007,0.991549296,0.068420547,0.043247205,0.207959624
42,41,45,46,2.82,1.21,3.39,1.44,ST,0.428163265,0.044968626,0.212058073,0.991549296,0.424544984,0.044211804,0.210266033
42,42,45,46,3.42,0.72,3.13,0.73,CL,-0.399959498,0.044840296,0.211755273,0.991549296,-0.396579559,0.044085634,0.209965792
43,43,17,17,4.88,1.9,5.18,1.59,SR,0.171245541,0.118078309,0.343625245,0.976377953,0.167200371,0.112565694,0.335508114
43,44,17,17,5.41,1.5,5.94,1.89,ST,0.310635465,0.119066094,0.345059551,0.976377953,0.303297619,0.113507363,0.336908538
43,45,17,17,4.41,1.54,4,1.9,ST,-0.237077408,0.118473613,0.344199961,0.976377953,-0.231477154,0.112942543,0.336069253
43,46,17,17,13.71,7.67,14.24,7.28,SR,0.070878897,0.117720938,0.343104851,0.976377953,0.069204592,0.112225008,0.335000012
44,47,35,37,9.86,1.63,9.08,2.1,SR,-0.413486625,0.056785756,0.23829762,0.989247312,-0.409040533,0.055571122,0.23573528
44,48,35,37,4.91,1.87,4.49,1.85,ST,-0.225837881,0.055952641,0.236543107,0.989247312,-0.223409516,0.054755828,0.233999632
45,50,21,16,6.19,1.29,5.63,2.31,SR,-0.311216103,0.111427905,0.333808186,0.978417266,-0.304499208,0.106669972,0.326603693
46,51,19,18,6.79,1.93,5.72,1.6,SR,-0.602008579,0.113084625,0.336280575,0.978417266,-0.589015588,0.108255951,0.329022721
47,52,19,16,6.53,1.47,6.12,2.19,SR,-0.223716015,0.115846563,0.340362399,0.977099237,-0.218592747,0.110601368,0.33256784
48,53,14,10,6.483,2.05,5.445,2.014,SR,-0.509986075,0.176847026,0.420531837,0.965517241,-0.492400348,0.164860961,0.406030739
49,54,23,23,12,2.49,11.75,2.1,SR,-0.108541362,0.087084579,0.295100963,0.982857143,-0.106680653,0.084124414,0.29004209
50,55,79,72,3.76,2.77,2.65,2.25,SR,-0.437774695,0.027181708,0.164868761,0.994957983,-0.435567427,0.026908298,0.16403749
50,56,79,72,7.61,2.98,6.4,2.92,SR,-0.409952491,0.02710361,0.164631741,0.994957983,-0.407885504,0.026830986,0.163801665
50,57,79,72,-37.29,32.16,-87.67,60.1,SR,-1.059145298,0.030261649,0.173958757,0.994957983,-1.05380507,0.029957259,0.173081654
50,58,79,72,10.28,2.78,7.72,3.86,SR,-0.766812586,0.028494142,0.168802079,0.994957983,-0.762946304,0.02820753,0.167950976
50,59,79,72,6.46,1.82,6.26,1.94,CL,-0.106488463,0.026584666,0.163048047,0.994957983,-0.105951546,0.026317261,0.162225956
51,60,24,25,16.92,4.18,15.68,3.16,SR,-0.335633769,0.082816157,0.287777964,0.983957219,-0.33024927,0.080180268,0.283161206
51,61,24,25,16.08,3.12,14.4,3.28,LR,-0.524557243,0.084474425,0.290644843,0.983957219,-0.516141886,0.081785757,0.285982092
51,62,24,25,4.69,1.51,3.67,1.08,CL,-0.779693903,0.087869958,0.296428673,0.983957219,-0.767185444,0.085073217,0.291673133
52,63,24,24,15.33,4.59,14.96,3.52,SR,-0.090461438,0.083418576,0.288822741,0.983606557,-0.088978464,0.080705959,0.284087942
52,64,24,24,14.38,3.1,13.75,3.64,LR,-0.186346497,0.083695052,0.289300972,0.983606557,-0.183291637,0.080973445,0.284558333
52,65,24,24,3.45,1.2,4.02,0.95,CL,0.526683913,0.086222874,0.293637318,0.983606557,0.518049751,0.083419067,0.288823591
53,66,11,11,3.7,1.2,2.9,0.7,CL,-0.814378558,0.196891192,0.443724229,0.962025316,-0.78345279,0.182221362,0.426873942
53,67,11,11,2.1,1,3.8,1.1,SR,1.61721508,0.241258741,0.491180966,0.962025316,1.555801849,0.223283206,0.472528524
53,68,11,11,3.5,1.5,4.6,1.1,ST,0.836314513,0.197714136,0.444650577,0.962025316,0.804555734,0.182982991,0.427765112
54,69,15,14,3,1.1,2.1,1,CL,-0.854670066,0.150689392,0.388187316,0.971962617,-0.830707354,0.142357976,0.377303559
54,70,15,14,3.8,0.9,2.5,1.2,CL,-1.232056846,0.164267032,0.405298695,0.971962617,-1.197513196,0.155184926,0.393935181
54,71,15,14,5.8,1.9,7.1,1.4,ST,0.774749495,0.148444148,0.385284503,0.971962617,0.753027546,0.140236868,0.374482134
54,72,15,14,5.5,2.4,6.4,2,ST,0.406057125,0.140938038,0.375417152,0.971962617,0.394672345,0.133145761,0.364891437
55,73,20,20,4.44,1.878,4.61,1.878,CL,0.090521832,0.100102428,0.316389677,0.98013245,0.088723385,0.09616436,0.310103789
55,74,20,20,57.21,17.128,54.17,17.084,SR,-0.177715275,0.100394784,0.316851359,0.98013245,-0.174184507,0.096445215,0.310556299
55,75,20,20,40.69,17.307,45.02,17.262,SR,0.250513254,0.100784461,0.317465685,0.98013245,0.245536169,0.096819562,0.31115842
55,76,20,20,46,10.688,49.75,10.643,ST,0.351600174,0.101545284,0.318661707,0.98013245,0.34461474,0.097550454,0.31233068
56,77,20,20,5.33,1.878,5.37,1.878,CL,0.021299255,0.100005671,0.316236732,0.98013245,0.020876091,0.09607141,0.309953883
56,78,20,20,51.94,17.262,55.32,17.173,SR,0.196311236,0.100481726,0.316988527,0.98013245,0.192411013,0.096528737,0.310690742
56,79,20,20,35.5,17.441,46.29,17.352,SR,0.620237674,0.104808685,0.323741694,0.98013245,0.607915071,0.100685471,0.31730974
56,80,20,20,36.93,10.778,43.39,10.733,ST,0.600621623,0.104509329,0.323279027,0.98013245,0.588688743,0.100397892,0.316856265
57,81,21,21,8.57,3.23,8.33,2.71,SR,-0.080500208,0.095315241,0.308731666,0.981132075,-0.078981336,0.091752372,0.30290654
57,82,21,21,4.33,2.06,3.81,1.94,ST,-0.259883079,0.096042134,0.309906653,0.981132075,-0.254979625,0.092452093,0.304059358
58,83,26,26,6.54,2.22,8.43,2.56,ST,0.78880205,0.082905853,0.287933764,0.984924623,0.776910562,0.08042502,0.283593054
59,84,38,40,0.52,0.19,0.69,0.18,SR,0.919237037,0.056732435,0.238185716,0.99009901,0.91013568,0.055614582,0.235827441
59,85,38,40,0.77,0.22,0.87,0.16,SR,0.521995751,0.053062453,0.230352889,0.99009901,0.516827476,0.052016913,0.228072167
59,86,38,40,0.28,0.19,0.6,0.24,ST,1.473967547,0.065242586,0.255426284,0.99009901,1.459373809,0.06395705,0.252897311
60,87,34,34,0.58,0.21,0.68,0.19,SR,0.499376169,0.060657181,0.246286785,0.988593156,0.493679863,0.059281259,0.24347743
60,88,34,34,0.66,0.26,0.8,0.26,SR,0.538461538,0.060955447,0.24689157,0.988593156,0.532319392,0.05957276,0.244075316
60,89,34,34,0.39,0.17,0.55,0.24,ST,0.769355259,0.063175791,0.251347947,0.988593156,0.760579343,0.061742738,0.24848086
61,90,12,14,0.61,0.22,0.58,0.11,SR,-0.176968823,0.155364173,0.394162623,0.968421053,-0.171380334,0.145706633,0.381715382
61,91,12,14,0.72,0.16,0.64,0.15,ST,-0.51725159,0.159907082,0.399883835,0.968421053,-0.500917329,0.149967151,0.387255925
62,92,15,14,0.67,0.17,0.6,0.14,SR,-0.447925153,0.141554496,0.376237286,0.971962617,-0.435366504,0.133728136,0.365688578
62,93,15,14,0.66,0.12,0.84,0.08,ST,1.752606406,0.191054362,0.437097658,0.971962617,1.703467908,0.180491221,0.424842583
63,94,52,55,0.64,0.21,0.61,0.2,SR,-0.14639995,0.037512741,0.193682063,0.992840095,-0.145351741,0.036977489,0.192295317
63,95,52,55,0.88,0.32,0.93,0.26,ST,0.172002321,0.037550834,0.193780376,0.992840095,0.170770801,0.037015038,0.192392927
64,96,19,19,12.95,7.67,12,8.12,ST,-0.120280487,0.105453518,0.324736075,0.979020979,-0.11775712,0.101075307,0.31792343
64,97,19,19,14.47,7.66,14.53,6.78,LT,0.00829486,0.105264063,0.324444237,0.979020979,0.008120842,0.100893718,0.317637715
65,98,17,17,5.65,1.87,6.53,1.77,SR,0.483334122,0.121082528,0.347969147,0.976377953,0.471916781,0.115429657,0.339749404
65,99,17,17,27,8.74,35.12,8.74,ST,0.929061785,0.130340526,0.361027044,0.976377953,0.907115444,0.124255436,0.352498846
66,100,13,13,5.77,1.74,7.23,1.69,SR,0.851221517,0.167780348,0.409609994,0.968421053,0.824340838,0.15735101,0.396674942
66,101,13,13,27.92,7.95,34,9.82,ST,0.680541564,0.162752631,0.403426116,0.968421053,0.659050778,0.152635819,0.390686344
67,102,14,13,4.86,2.38,6.85,0.8,SR,1.103397188,0.170897673,0.413397718,0.96969697,1.069960909,0.160697169,0.400870515
67,103,14,13,21.64,8.88,40.08,4.37,ST,2.603367049,0.273861278,0.523317569,0.96969697,2.524477138,0.257515104,0.507459461
68,104,14,14,6.07,1.77,7.57,1.09,SR,1.020502619,0.161454028,0.401813425,0.970873786,0.990779242,0.152185907,0.390110121
68,105,14,14,25.29,7.46,30.29,6.01,ST,0.738126188,0.152586255,0.390622906,0.970873786,0.716627367,0.14382718,0.37924554
69,106,10,11,5.64,1.12,6.8,2.04,SR,0.695158708,0.202414939,0.449905478,0.96,0.66735236,0.186545608,0.431909259
69,107,10,11,24.27,3.52,34.6,5.72,ST,2.149782349,0.300946333,0.548585757,0.96,2.063791055,0.27735214,0.526642326
71,110,20,20,8.03,1.95,8.5,2.23,SR&T,0.224377547,0.100629316,0.317221241,0.98013245,0.219919715,0.096670521,0.310918833
71,111,20,20,4.74,0.96,4.03,1.15,CL,-0.6702738,0.105615837,0.324985903,0.98013245,-0.656957102,0.10146087,0.318529229
74,118,26,26,79.45,10.198,77.08,10.963,ST,-0.223850745,0.077404896,0.278217353,0.984924623,-0.220476111,0.075088671,0.274023122
74,119,26,26,39.55,22.691,53.16,24.424,SR,0.577344904,0.080128146,0.283069153,0.984924623,0.568641212,0.077730432,0.278801779
75,120,24,24,87.13,10.092,87.22,10.092,ST,0.008917955,0.083334162,0.288676569,0.983606557,0.008771759,0.08062429,0.283944167
75,121,24,24,51.3,21.653,63.91,21.653,SR,0.582367339,0.086866164,0.294730663,0.983606557,0.572820334,0.084041438,0.289899013
76,122,60,60,46.27,5.41,47.22,3.84,SR,0.202509156,0.033504208,0.183041548,0.993630573,0.201219289,0.033078762,0.181875678
76,123,60,60,41.83,10.02,26.47,14.78,LR,-1.216504781,0.039499516,0.198744852,0.993630573,-1.208756343,0.03899794,0.197478961
77,124,15,15,9.1,5.5,10,1.9,SR,0.218732859,0.134130734,0.36623863,0.972972973,0.212821161,0.126978402,0.356340289
77,125,15,15,3.3,0.8,3.2,1.2,ST,-0.098058068,0.13349359,0.365367746,0.972972973,-0.09540785,0.126375232,0.355492942
77,126,15,15,4.8,2.6,5.9,1.5,SR,0.518257132,0.137809841,0.371227479,0.972972973,0.504250183,0.130461325,0.361194304
78,127,15,15,10.9,3.6,11.7,3.2,SR,0.234888088,0.134252874,0.366405341,0.972972973,0.228539761,0.127094028,0.356502493
78,128,15,15,3.3,0.8,3.7,0.6,ST,0.565685425,0.138666667,0.372379735,0.972972973,0.55039663,0.131272462,0.362315417
78,129,15,15,5.5,2.2,6.8,1.7,SR,0.661254443,0.140620957,0.37499461,0.972972973,0.643382701,0.133122542,0.36485962
79,130,15,15,11.9,3.5,11.3,3.3,SR,-0.17639431,0.133851916,0.365857781,0.972972973,-0.171626896,0.126714451,0.355969733
79,131,15,15,3.3,0.8,3.7,0.5,ST,0.599625351,0.139325843,0.373263771,0.972972973,0.583419261,0.131896488,0.363175561
79,132,15,15,6.5,2,6.6,1.8,SR,0.052558833,0.133379374,0.36521141,0.972972973,0.051138324,0.126267106,0.355340831
80,133,15,16,11,5.7,13.5,5.9,SR,0.430714511,0.132158844,0.363536579,0.973913043,0.41947848,0.125353538,0.354053016
80,134,15,16,3.1,1.3,3.3,1.3,ST,0.153846154,0.129548419,0.359928352,0.973913043,0.149832776,0.122877532,0.350538917
80,135,15,16,7,3.1,7.9,3.4,SR,0.276190322,0.130397007,0.361105257,0.973913043,0.268985357,0.123682424,0.35168512
81,136,30,30,0.66,0.13,0.71,0.09,ST,0.447213595,0.068333333,0.261406452,0.987012987,0.441405627,0.066569967,0.258011563
82,137,30,28,0.63,0.12,0.68,0.12,ST,0.416666667,0.070544267,0.265601707,0.986547085,0.411061286,0.068658982,0.262028589
83,138,24,24,878.31,354.43,782.69,350.79,CL,-0.271174176,0.084099327,0.28999884,0.983606557,-0.266728698,0.081364574,0.285244761
83,139,24,24,26.17,7.5,20.46,8.88,SR,-0.69473049,0.088360942,0.297255685,0.983606557,-0.683341466,0.085487609,0.292382641
83,140,24,24,28.13,16.62,32,18.87,SR,0.217652633,0.083826799,0.28952858,0.983606557,0.214084557,0.081100907,0.28478221
83,141,24,24,13.92,10.2,11.96,7.36,ST,-0.220371107,0.083839202,0.28955,0.983606557,-0.216758466,0.081112907,0.284803278
84,142,20,20,25.26,14.3,24.21,11.31,SR,-0.081446008,0.100082918,0.316358844,0.98013245,-0.079827876,0.096145618,0.310073569
84,143,20,20,37.55,18.17,39.06,16.17,ST,0.087795313,0.10009635,0.316380072,0.98013245,0.086051035,0.096158522,0.310094376
85,144,21,21,25.31,14.3,28.03,13.26,SR,0.197247129,0.095701267,0.309356214,0.981132075,0.193525485,0.092123968,0.303519304
85,145,21,21,35.42,14.58,41.88,19.23,ST,0.378571817,0.096944245,0.311358709,0.981132075,0.371428952,0.093320484,0.305484016
86,146,20,20,27.24,15.45,32.11,15.87,SR,0.310955439,0.101208666,0.318133095,0.98013245,0.304777517,0.097227079,0.31181257
86,147,20,20,36.77,17.05,40.16,17.55,ST,0.1959333,0.100479873,0.316985604,0.98013245,0.192040586,0.096526957,0.310687877
87,148,23,25,69.46,13.908,76.63,13.9,SR,0.51568537,0.08624838,0.293680744,0.983606557,0.507231512,0.083443743,0.288866306
87,149,23,25,53.07,18.368,72.83,18.35,SR,1.076334158,0.095545919,0.30910503,0.983606557,1.058689336,0.092438944,0.304037734
87,150,23,25,45.05,27.72,36,27.7,ST,-0.326602,0.084589395,0.29084256,0.983606557,-0.321247869,0.081838705,0.286074649
88,151,17,17,58.34,22.02,64.09,13.12,SR,0.317245351,0.119127127,0.345147978,0.976377953,0.309751366,0.113565546,0.336994876
88,152,17,17,37.65,20.01,49.56,4.38,ST,0.822274914,0.127590236,0.357197754,0.976377953,0.802851097,0.121633546,0.348760012
89,153,40,38,44.84,18.61,55.76,18.23,SR,0.592641511,0.053567225,0.231445944,0.99009901,0.586773773,0.052511739,0.2291544
89,154,40,38,47.77,18.63,47.09,19.61,ST,-0.035577166,0.051323903,0.226547794,0.99009901,-0.035224917,0.05031262,0.224304747
89,155,40,38,41.25,26.88,51.64,26.66,ST,0.388075793,0.052281192,0.228650808,0.99009901,0.384233459,0.051251046,0.226386939
90,156,44,47,27.2,4.29,26.34,5.22,SR,-0.179418718,0.044180743,0.210192156,0.991549296,-0.177902504,0.043437181,0.208415884
91,158,29,28,3.48,1.38,3.29,1.41,CL,-0.136219475,0.070359814,0.265254244,0.98630137,-0.134353454,0.068445351,0.261620624
91,159,29,28,35.06,26.48,45.83,29.87,SR,0.381980454,0.071476948,0.267351732,0.98630137,0.376747845,0.069532089,0.263689379
91,160,29,28,51.72,27.11,65.82,22.11,SR,0.568965119,0.073036705,0.270253039,0.98630137,0.561171076,0.071049405,0.266550942
91,162,29,28,51.53,28.4,68.06,25.46,SR,0.61229558,0.073485692,0.271082446,0.98630137,0.603907969,0.071486176,0.267368988
91,163,29,28,17.67,10.31,20.98,10.65,ST,0.315891305,0.071072372,0.26659402,0.98630137,0.311564027,0.06913852,0.262942047
92,164,25,28,2.84,1.14,2.68,1.19,CL,-0.137134527,0.0758917,0.275484482,0.985221675,-0.135107909,0.07366517,0.271413282
92,165,25,28,55.33,27.52,50.89,31.29,SR,-0.15012271,0.075926897,0.275548357,0.985221675,-0.147904148,0.073699335,0.271476214
92,166,25,28,66.29,18.84,56.12,33.2,SR,-0.371214353,0.077014287,0.27751448,0.985221675,-0.365728427,0.074754822,0.273413281
92,168,25,28,74.22,20.72,67.46,26.22,SR,-0.284144838,0.076475968,0.276542886,0.985221675,-0.279945654,0.074232297,0.272456045
92,169,25,28,20.75,10,21.65,10.96,ST,0.085558207,0.075783344,0.275287748,0.985221675,0.0842938,0.073559993,0.271219456
93,170,30,27,4.1,1.1,3.7,0.8,CL,-0.41244885,0.071862599,0.268072003,0.98630137,-0.406798866,0.069907246,0.264399784
93,171,30,27,32.2,4.8,28.1,5.2,SR,-0.821135445,0.076284962,0.276197324,0.98630137,-0.809887014,0.074209278,0.272413799
93,172,30,27,21.6,6.2,17.9,5.6,ST,-0.624584084,0.073792346,0.271647467,0.98630137,-0.616028138,0.071784486,0.267926269
94,173,26,28,4.2,0.8,3.9,1.1,CL,-0.310093208,0.075066174,0.273982069,0.985507246,-0.305599103,0.07290611,0.270011314
94,174,26,28,33.5,5.7,30.6,4.6,SR,-0.562210693,0.077102499,0.277673367,0.985507246,-0.554062712,0.074883838,0.273649115
94,175,26,28,22.2,6.7,20,6.1,ST,-0.343992343,0.075271479,0.274356482,0.985507246,-0.339006946,0.073105507,0.270380301
95,176,10,10,1.4,0.8,1.2,1.1,SR,-0.207950098,0.201081081,0.448420652,0.957746479,-0.199163474,0.184447316,0.4294733
95,177,10,10,2.1,1.4,2.7,2.7,SR,0.278994333,0.201945946,0.449383963,0.957746479,0.26720584,0.185240638,0.430395908
95,178,10,10,0.4,0.7,0.7,0.7,ST,0.428571429,0.204591837,0.452318291,0.957746479,0.410462777,0.187667656,0.433206251
95,179,10,10,0.8,0.8,1.7,1.2,ST,0.882522608,0.219471154,0.468477485,0.957746479,0.84523292,0.201316131,0.448682662
95,180,10,10,2.6,1.2,2.4,1,LR,-0.181071492,0.200819672,0.44812908,0.957746479,-0.173420584,0.184207531,0.429194048
95,181,10,10,4,3.2,5.6,2.7,LR,0.540435691,0.207301768,0.45530404,0.957746479,0.51760038,0.190153417,0.436065841
95,182,10,10,0.5,0.5,1.4,0.8,LT,1.34915704,0.245505618,0.495485235,0.957746479,1.292150405,0.22519698,0.474549239
